
T2CD8 000:502 SEGGER J-Link V4.40c Log File (0003ms, 0502ms total)
T2CD8 000:502 DLL Compiled: Jan 24 2012 09:30:33 (0003ms, 0502ms total)
T2CD8 000:502 Logging started @ 2020-04-25 13:45 (0003ms, 0502ms total)
T2CD8 000:505 JLINK_SetWarnOutHandler(...) (0000ms, 0505ms total)
T2CD8 000:505 JLINK_OpenEx(...)
Firmware: J-Link ARM V8 compiled Dec  6 2011 18:57:44
Hardware: V8.00
Feature(s): RDI,FlashDL,FlashBP,JFlash,GDBFull  returns O.K. (0283ms, 0505ms total)
T2CD8 000:788 JLINK_SetErrorOutHandler(...) (0000ms, 0788ms total)
T2CD8 000:788 JLINK_ExecCommand("Device = STM32F105RB", ...)
                JLINK_ExecCommand("map ram 0x20000000 - 0x20004FFF", ...)  returns 0x00 (0000ms, 0000ms total)
                JLINK_AddMirrorAreaEx(Addr = 0x00000000, Size = 0x00000000) (0000ms, 0001ms total)
              Device "STM32F105RB" selected (128 KB flash, 20 KB RAM).  returns 0x00 (0017ms, 0788ms total)
T2CD8 000:806 JLINK_ExecCommand("ProjectFile = "D:\Canopen\CAN FD\TCAN4550×ÊÁÏ\³ÌÐò\CAN_FD-TCAN4550\CAN\JLinkSettings.ini"", ...)  returns 0x00 (0001ms, 0805ms total)
T2CD8 000:818 JLINK_ExecCommand("DisableConnectionTimeout", ...)  returns 0x00 (0000ms, 0806ms total)
T2CD8 000:818 JLINK_TIF_Select(JLINKARM_TIF_SWD)  returns 0x00 (0001ms, 0806ms total)
T2CD8 000:819 JLINK_SetSpeed(2000) (0000ms, 0807ms total)
T2CD8 000:819 JLINK_GetHardwareVersion()  returns 0x13880 (0000ms, 0807ms total)
T2CD8 000:819 JLINK_GetDLLVersion()  returns 44003 (0000ms, 0807ms total)
T2CD8 000:819 JLINK_GetFirmwareString(...) (0001ms, 0807ms total)
T2CD8 000:838 JLINK_GetDLLVersion()  returns 44003 (0000ms, 0808ms total)
T2CD8 000:838 JLINK_GetCompileDateTime() (0000ms, 0808ms total)
T2CD8 000:844 JLINK_GetFirmwareString(...) (0000ms, 0808ms total)
T2CD8 000:847 JLINK_GetHardwareVersion()  returns 0x13880 (0000ms, 0808ms total)
T2CD8 000:857 JLINK_GetId() >0x108 TIF>Found SWD-DP with ID 0x1BA01477 >0x33 TIF> >0x33 TIF> >0x35 TIF> >0x33 TIF> >0x33 TIF> >0x35 TIF> >0x33 TIF> >0x33 TIF> >0x35 TIF> >0x33 TIF> >0x33 TIF> >0x35 TIF> >0x33 TIF> >0x33 TIF> >0x35 TIF> >0x35 TIF> >0x35 TIF> >0x35 TIF> >0x35 TIF> >0x33 TIF> >0x33 TIF> >0x35 TIF> >0x35 TIF> >0x35 TIF> >0x33 TIF> >0x33 TIF> >0x33 TIF>TPIU fitted.ETM fitted. >0x35 TIF> >0x33 TIF> >0x33 TIF> >0x35 TIF> >0x33 TIF> >0x33 TIF>  FPUnit: 6 code (BP) slots and 2 literal slots
 >0x35 TIF> >0x33 TIF> >0x33 TIF> >0x35 TIF> >0x35 TIF> >0x35 TIF> >0x33 TIF> >0x33 TIF> >0x35 TIF> >0x33 TIF> >0x33 TIF> >0x35 TIF> >0x33 TIF> >0x33 TIF>Found Cortex-M3 r1p1, Little endian. >0x33 TIF>  returns 0x1BA01477 (0030ms, 0808ms total)
T2CD8 000:887 JLINK_GetDebugInfo(0x100) -- Value=0xE00FF003  returns 0x00 (0000ms, 0838ms total)
T2CD8 000:890 JLINK_ReadMem (0xE00FFFF0, 0x0010 Bytes, ...) -- CPU is running -- CPU_ReadMem(16 bytes @ 0xE00FFFF0) -- Data:  0D 00 00 00 10 00 00 00 05 00 00 00 B1 00 00 00  returns 0x00 (0001ms, 0838ms total)
T2CD8 000:891 JLINK_ReadMem (0xE00FFFD0, 0x0020 Bytes, ...) -- CPU is running -- CPU_ReadMem(32 bytes @ 0xE00FFFD0) -- Data:  00 00 00 00 00 00 00 00 00 00 00 00 00 00 00 00 ...  returns 0x00 (0001ms, 0839ms total)
T2CD8 000:892 JLINK_ReadMem (0xE00FF000, 0x0018 Bytes, ...) -- CPU is running -- CPU_ReadMem(24 bytes @ 0xE00FF000) -- Data:  03 F0 F0 FF 03 20 F0 FF 03 30 F0 FF 03 10 F0 FF ...  returns 0x00 (0001ms, 0840ms total)
T2CD8 000:893 JLINK_ReadMemU32(0xE000ED00, 0x0001 Items, ...) -- CPU is running -- CPU_ReadMem(4 bytes @ 0xE000ED00) -- Data:  31 C2 1F 41  returns 0x01 (0001ms, 0841ms total)
T2CD8 000:894 JLINK_SetResetType(JLINKARM_RESET_TYPE_NORMAL)  returns JLINKARM_RESET_TYPE_NORMAL (0000ms, 0842ms total)
T2CD8 000:894 JLINK_Reset() >0x108 TIF>Found SWD-DP with ID 0x1BA01477 >0x33 TIF> >0x33 TIF> >0x35 TIF> >0x33 TIF> >0x35 TIF> >0x33 TIF> >0x33 TIF> >0x35 TIF> >0x33 TIF> >0x33 TIF> >0x35 TIF> >0x33 TIF> >0x33 TIF> >0x35 TIF> >0x33 TIF> >0x33 TIF> >0x35 TIF> >0x35 TIF> >0x35 TIF> >0x35 TIF> >0x35 TIF> >0x33 TIF> >0x33 TIF> >0x35 TIF> >0x33 TIF> >0x33 TIF> >0x33 TIF>TPIU fitted.ETM fitted. >0x35 TIF> >0x33 TIF> >0x33 TIF> >0x35 TIF> >0x33 TIF> >0x33 TIF>  FPUnit: 6 code (BP) slots and 2 literal slots
 >0x35 TIF> >0x33 TIF> >0x33 TIF> >0x35 TIF> >0x33 TIF> >0x33 TIF> >0x35 TIF> >0x33 TIF> >0x33 TIF> >0x35 TIF> >0x33 TIF> >0x33 TIF>Found Cortex-M3 r1p1, Little endian. (0042ms, 0842ms total)
T2CD8 000:936 JLINK_Halt()  returns 0x00 (0000ms, 0884ms total)
T2CD8 000:936 JLINK_IsHalted()  returns TRUE (0000ms, 0884ms total)
T2CD8 000:936 JLINK_ReadMemU32(0xE000EDF0, 0x0001 Items, ...) -- CPU_ReadMem(4 bytes @ 0xE000EDF0) -- Data:  03 00 03 00  returns 0x01 (0001ms, 0884ms total)
T2CD8 000:937 JLINK_WriteU32(0xE000EDF0, 0xA05F0003) -- CPU_WriteMem(4 bytes @ 0xE000EDF0)  returns 0x00 (0000ms, 0885ms total)
T2CD8 000:937 JLINK_WriteU32(0xE000EDFC, 0x01000000) -- CPU_WriteMem(4 bytes @ 0xE000EDFC)  returns 0x00 (0001ms, 0885ms total)
T2CD8 000:952 JLINK_GetHWStatus(...)  returns 0x00 (0000ms, 0886ms total)
T2CD8 000:962 JLINK_GetNumBPUnits(Type = 0xFFFFFF00)  returns 0x06 (0000ms, 0886ms total)
T2CD8 000:962 JLINK_GetNumBPUnits(Type = 0xF0)  returns 0x2000 (0000ms, 0886ms total)
T2CD8 000:962 JLINK_GetNumWPUnits()  returns 0x04 (0000ms, 0886ms total)
T2CD8 000:972 JLINK_GetSpeed()  returns 0x7D0 (0000ms, 0886ms total)
T2CD8 000:979 JLINK_ReadMemU32(0xE000E004, 0x0001 Items, ...) -- CPU_ReadMem(4 bytes @ 0xE000E004) -- Data:  02 00 00 00  returns 0x01 (0001ms, 0887ms total)
T2CD8 000:980 JLINK_ReadMemU32(0xE000E004, 0x0001 Items, ...) -- CPU_ReadMem(4 bytes @ 0xE000E004) -- Data:  02 00 00 00  returns 0x01 (0000ms, 0888ms total)
T2CD8 000:980 JLINK_WriteMem(0xE0001000, 0x001C Bytes, ...) -- Data:  01 00 00 00 00 00 00 00 00 00 00 00 00 00 00 00 ... -- CPU_WriteMem(28 bytes @ 0xE0001000)  returns 0x1C (0001ms, 0888ms total)
T2CD8 000:981 JLINK_ReadMem (0xE0001000, 0x001C Bytes, ...) -- CPU_ReadMem(28 bytes @ 0xE0001000) -- Data:  01 00 00 40 00 00 00 00 00 00 00 00 00 00 00 00 ...  returns 0x00 (0001ms, 0889ms total)
T2CD8 000:982 JLINK_Halt()  returns 0x00 (0000ms, 0890ms total)
T2CD8 000:982 JLINK_IsHalted()  returns TRUE (0000ms, 0890ms total)
T2CD8 000:984 JLINK_WriteMem(0x20000000, 0x0164 Bytes, ...) -- Data:  00 BE 0A E0 0D 78 2D 06 68 40 08 24 40 00 00 D3 ... -- CPU_WriteMem(356 bytes @ 0x20000000)  returns 0x164 (0005ms, 0890ms total)
T2CD8 000:989 JLINK_WriteReg(R0, 0x08000000)  returns 0x00 (0000ms, 0895ms total)
T2CD8 000:989 JLINK_WriteReg(R1, 0x00B71B00)  returns 0x00 (0000ms, 0895ms total)
T2CD8 000:989 JLINK_WriteReg(R2, 0x00000001)  returns 0x00 (0000ms, 0895ms total)
T2CD8 000:989 JLINK_WriteReg(R3, 0x00000000)  returns 0x00 (0000ms, 0895ms total)
T2CD8 000:989 JLINK_WriteReg(R4, 0x00000000)  returns 0x00 (0001ms, 0895ms total)
T2CD8 000:990 JLINK_WriteReg(R5, 0x00000000)  returns 0x00 (0000ms, 0896ms total)
T2CD8 000:990 JLINK_WriteReg(R6, 0x00000000)  returns 0x00 (0000ms, 0896ms total)
T2CD8 000:990 JLINK_WriteReg(R7, 0x00000000)  returns 0x00 (0000ms, 0896ms total)
T2CD8 000:990 JLINK_WriteReg(R8, 0x00000000)  returns 0x00 (0000ms, 0896ms total)
T2CD8 000:990 JLINK_WriteReg(R9, 0x20000160)  returns 0x00 (0000ms, 0896ms total)
T2CD8 000:990 JLINK_WriteReg(R10, 0x00000000)  returns 0x00 (0000ms, 0896ms total)
T2CD8 000:990 JLINK_WriteReg(R11, 0x00000000)  returns 0x00 (0000ms, 0896ms total)
T2CD8 000:990 JLINK_WriteReg(R12, 0x00000000)  returns 0x00 (0000ms, 0896ms total)
T2CD8 000:990 JLINK_WriteReg(R13, 0x20000800)  returns 0x00 (0000ms, 0896ms total)
T2CD8 000:990 JLINK_WriteReg(R14, 0x20000001)  returns 0x00 (0000ms, 0896ms total)
T2CD8 000:990 JLINK_WriteReg(R15, 0x20000038)  returns 0x00 (0000ms, 0896ms total)
T2CD8 000:990 JLINK_WriteReg(XPSR, 0x01000000)  returns 0x00 (0000ms, 0896ms total)
T2CD8 000:990 JLINK_WriteReg(MSP, 0x20000800)  returns 0x00 (0000ms, 0896ms total)
T2CD8 000:990 JLINK_WriteReg(PSP, 0x20000800)  returns 0x00 (0000ms, 0896ms total)
T2CD8 000:990 JLINK_WriteReg(CFBP, 0x00000000)  returns 0x00 (0000ms, 0896ms total)
T2CD8 000:990 JLINK_SetBPEx(Addr = 0x20000000, Type = 0xFFFFFFF2) -- CPU_ReadMem(2 bytes @ 0x20000000)  returns 0x00000001 (0000ms, 0896ms total)
T2CD8 000:990 JLINK_Go() -- CPU_WriteMem(2 bytes @ 0x20000000) -- CPU_WriteMem(4 bytes @ 0xE0002008) -- CPU_WriteMem(4 bytes @ 0xE000200C) -- CPU_WriteMem(4 bytes @ 0xE0002010) -- CPU_WriteMem(4 bytes @ 0xE0002014) -- CPU_WriteMem(4 bytes @ 0xE0002018) -- CPU_WriteMem(4 bytes @ 0xE000201C) (0007ms, 0896ms total)
T2CD8 000:997 JLINK_IsHalted() -- CPU_ReadMem(2 bytes @ 0x20000000)  returns TRUE (0006ms, 0903ms total)
T2CD8 001:003 JLINK_ReadReg(R15)  returns 0x20000000 (0000ms, 0903ms total)
T2CD8 001:003 JLINK_ClrBPEx(BPHandle = 0x00000001)  returns 0x00 (0000ms, 0903ms total)
T2CD8 001:003 JLINK_ReadReg(R0)  returns 0x00000000 (0000ms, 0903ms total)
T2CD8 001:004 JLINK_WriteReg(R0, 0x08000000)  returns 0x00 (0000ms, 0903ms total)
T2CD8 001:004 JLINK_WriteReg(R1, 0x00000800)  returns 0x00 (0000ms, 0903ms total)
T2CD8 001:004 JLINK_WriteReg(R2, 0x000000FF)  returns 0x00 (0000ms, 0903ms total)
T2CD8 001:004 JLINK_WriteReg(R3, 0x00000000)  returns 0x00 (0000ms, 0903ms total)
T2CD8 001:004 JLINK_WriteReg(R4, 0x00000000)  returns 0x00 (0000ms, 0903ms total)
T2CD8 001:004 JLINK_WriteReg(R5, 0x00000000)  returns 0x00 (0000ms, 0903ms total)
T2CD8 001:004 JLINK_WriteReg(R6, 0x00000000)  returns 0x00 (0000ms, 0903ms total)
T2CD8 001:004 JLINK_WriteReg(R7, 0x00000000)  returns 0x00 (0000ms, 0903ms total)
T2CD8 001:004 JLINK_WriteReg(R8, 0x00000000)  returns 0x00 (0000ms, 0903ms total)
T2CD8 001:004 JLINK_WriteReg(R9, 0x20000160)  returns 0x00 (0000ms, 0903ms total)
T2CD8 001:004 JLINK_WriteReg(R10, 0x00000000)  returns 0x00 (0000ms, 0903ms total)
T2CD8 001:004 JLINK_WriteReg(R11, 0x00000000)  returns 0x00 (0000ms, 0903ms total)
T2CD8 001:004 JLINK_WriteReg(R12, 0x00000000)  returns 0x00 (0000ms, 0903ms total)
T2CD8 001:004 JLINK_WriteReg(R13, 0x20000800)  returns 0x00 (0000ms, 0903ms total)
T2CD8 001:004 JLINK_WriteReg(R14, 0x20000001)  returns 0x00 (0000ms, 0903ms total)
T2CD8 001:004 JLINK_WriteReg(R15, 0x20000020)  returns 0x00 (0000ms, 0903ms total)
T2CD8 001:004 JLINK_WriteReg(XPSR, 0x01000000)  returns 0x00 (0000ms, 0903ms total)
T2CD8 001:004 JLINK_WriteReg(MSP, 0x20000800)  returns 0x00 (0000ms, 0903ms total)
T2CD8 001:004 JLINK_WriteReg(PSP, 0x20000800)  returns 0x00 (0000ms, 0903ms total)
T2CD8 001:004 JLINK_WriteReg(CFBP, 0x00000000)  returns 0x00 (0000ms, 0903ms total)
T2CD8 001:004 JLINK_SetBPEx(Addr = 0x20000000, Type = 0xFFFFFFF2)  returns 0x00000002 (0000ms, 0903ms total)
T2CD8 001:004 JLINK_Go() -- CPU_WriteMem(4 bytes @ 0xE0002008) -- CPU_WriteMem(4 bytes @ 0xE000200C) -- CPU_WriteMem(4 bytes @ 0xE0002010) -- CPU_WriteMem(4 bytes @ 0xE0002014) -- CPU_WriteMem(4 bytes @ 0xE0002018) -- CPU_WriteMem(4 bytes @ 0xE000201C) (0005ms, 0903ms total)
T2CD8 001:009 JLINK_IsHalted() -- CPU_ReadMem(2 bytes @ 0x20000000)  returns TRUE (0006ms, 0908ms total)
T2CD8 001:015 JLINK_ReadReg(R15)  returns 0x20000000 (0000ms, 0908ms total)
T2CD8 001:015 JLINK_ClrBPEx(BPHandle = 0x00000002)  returns 0x00 (0000ms, 0908ms total)
T2CD8 001:015 JLINK_ReadReg(R0)  returns 0x00000001 (0000ms, 0908ms total)
T2CD8 001:015 JLINK_WriteReg(R0, 0x08000000)  returns 0x00 (0000ms, 0908ms total)
T2CD8 001:015 JLINK_WriteReg(R1, 0x00000800)  returns 0x00 (0000ms, 0908ms total)
T2CD8 001:015 JLINK_WriteReg(R2, 0x000000FF)  returns 0x00 (0000ms, 0908ms total)
T2CD8 001:015 JLINK_WriteReg(R3, 0x00000000)  returns 0x00 (0000ms, 0908ms total)
T2CD8 001:015 JLINK_WriteReg(R4, 0x00000000)  returns 0x00 (0000ms, 0908ms total)
T2CD8 001:015 JLINK_WriteReg(R5, 0x00000000)  returns 0x00 (0000ms, 0908ms total)
T2CD8 001:015 JLINK_WriteReg(R6, 0x00000000)  returns 0x00 (0000ms, 0908ms total)
T2CD8 001:015 JLINK_WriteReg(R7, 0x00000000)  returns 0x00 (0000ms, 0908ms total)
T2CD8 001:015 JLINK_WriteReg(R8, 0x00000000)  returns 0x00 (0000ms, 0908ms total)
T2CD8 001:015 JLINK_WriteReg(R9, 0x20000160)  returns 0x00 (0000ms, 0908ms total)
T2CD8 001:016 JLINK_WriteReg(R10, 0x00000000)  returns 0x00 (0000ms, 0909ms total)
T2CD8 001:016 JLINK_WriteReg(R11, 0x00000000)  returns 0x00 (0000ms, 0909ms total)
T2CD8 001:016 JLINK_WriteReg(R12, 0x00000000)  returns 0x00 (0000ms, 0909ms total)
T2CD8 001:016 JLINK_WriteReg(R13, 0x20000800)  returns 0x00 (0000ms, 0909ms total)
T2CD8 001:016 JLINK_WriteReg(R14, 0x20000001)  returns 0x00 (0000ms, 0909ms total)
T2CD8 001:016 JLINK_WriteReg(R15, 0x200000B6)  returns 0x00 (0000ms, 0909ms total)
T2CD8 001:016 JLINK_WriteReg(XPSR, 0x01000000)  returns 0x00 (0000ms, 0909ms total)
T2CD8 001:016 JLINK_WriteReg(MSP, 0x20000800)  returns 0x00 (0000ms, 0909ms total)
T2CD8 001:016 JLINK_WriteReg(PSP, 0x20000800)  returns 0x00 (0000ms, 0909ms total)
T2CD8 001:016 JLINK_WriteReg(CFBP, 0x00000000)  returns 0x00 (0000ms, 0909ms total)
T2CD8 001:016 JLINK_SetBPEx(Addr = 0x20000000, Type = 0xFFFFFFF2)  returns 0x00000003 (0000ms, 0909ms total)
T2CD8 001:016 JLINK_Go() -- CPU_WriteMem(4 bytes @ 0xE0002008) -- CPU_WriteMem(4 bytes @ 0xE000200C) -- CPU_WriteMem(4 bytes @ 0xE0002010) -- CPU_WriteMem(4 bytes @ 0xE0002014) -- CPU_WriteMem(4 bytes @ 0xE0002018) -- CPU_WriteMem(4 bytes @ 0xE000201C) (0004ms, 0909ms total)
T2CD8 001:020 JLINK_IsHalted()  returns FALSE (0001ms, 0913ms total)
T2CD8 001:072 JLINK_IsHalted() -- CPU_ReadMem(2 bytes @ 0x20000000)  returns TRUE (0006ms, 0913ms total)
T2CD8 001:078 JLINK_ReadReg(R15)  returns 0x20000000 (0000ms, 0913ms total)
T2CD8 001:078 JLINK_ClrBPEx(BPHandle = 0x00000003)  returns 0x00 (0000ms, 0913ms total)
T2CD8 001:078 JLINK_ReadReg(R0)  returns 0x00000000 (0000ms, 0913ms total)
T2CD8 001:079 JLINK_WriteReg(R0, 0x08000800)  returns 0x00 (0000ms, 0913ms total)
T2CD8 001:079 JLINK_WriteReg(R1, 0x00000800)  returns 0x00 (0000ms, 0913ms total)
T2CD8 001:079 JLINK_WriteReg(R2, 0x000000FF)  returns 0x00 (0000ms, 0913ms total)
T2CD8 001:079 JLINK_WriteReg(R3, 0x00000000)  returns 0x00 (0000ms, 0913ms total)
T2CD8 001:079 JLINK_WriteReg(R4, 0x00000000)  returns 0x00 (0000ms, 0913ms total)
T2CD8 001:079 JLINK_WriteReg(R5, 0x00000000)  returns 0x00 (0000ms, 0913ms total)
T2CD8 001:079 JLINK_WriteReg(R6, 0x00000000)  returns 0x00 (0000ms, 0913ms total)
T2CD8 001:079 JLINK_WriteReg(R7, 0x00000000)  returns 0x00 (0000ms, 0913ms total)
T2CD8 001:079 JLINK_WriteReg(R8, 0x00000000)  returns 0x00 (0000ms, 0913ms total)
T2CD8 001:079 JLINK_WriteReg(R9, 0x20000160)  returns 0x00 (0000ms, 0913ms total)
T2CD8 001:079 JLINK_WriteReg(R10, 0x00000000)  returns 0x00 (0000ms, 0913ms total)
T2CD8 001:079 JLINK_WriteReg(R11, 0x00000000)  returns 0x00 (0000ms, 0913ms total)
T2CD8 001:079 JLINK_WriteReg(R12, 0x00000000)  returns 0x00 (0000ms, 0913ms total)
T2CD8 001:079 JLINK_WriteReg(R13, 0x20000800)  returns 0x00 (0000ms, 0913ms total)
T2CD8 001:079 JLINK_WriteReg(R14, 0x20000001)  returns 0x00 (0000ms, 0913ms total)
T2CD8 001:079 JLINK_WriteReg(R15, 0x20000020)  returns 0x00 (0000ms, 0913ms total)
T2CD8 001:079 JLINK_WriteReg(XPSR, 0x01000000)  returns 0x00 (0000ms, 0913ms total)
T2CD8 001:079 JLINK_WriteReg(MSP, 0x20000800)  returns 0x00 (0000ms, 0913ms total)
T2CD8 001:079 JLINK_WriteReg(PSP, 0x20000800)  returns 0x00 (0000ms, 0913ms total)
T2CD8 001:079 JLINK_WriteReg(CFBP, 0x00000000)  returns 0x00 (0000ms, 0913ms total)
T2CD8 001:079 JLINK_SetBPEx(Addr = 0x20000000, Type = 0xFFFFFFF2)  returns 0x00000004 (0000ms, 0913ms total)
T2CD8 001:079 JLINK_Go() -- CPU_WriteMem(4 bytes @ 0xE0002008) -- CPU_WriteMem(4 bytes @ 0xE000200C) -- CPU_WriteMem(4 bytes @ 0xE0002010) -- CPU_WriteMem(4 bytes @ 0xE0002014) -- CPU_WriteMem(4 bytes @ 0xE0002018) -- CPU_WriteMem(4 bytes @ 0xE000201C) (0006ms, 0913ms total)
T2CD8 001:085 JLINK_IsHalted() -- CPU_ReadMem(2 bytes @ 0x20000000)  returns TRUE (0006ms, 0919ms total)
T2CD8 001:091 JLINK_ReadReg(R15)  returns 0x20000000 (0000ms, 0919ms total)
T2CD8 001:091 JLINK_ClrBPEx(BPHandle = 0x00000004)  returns 0x00 (0000ms, 0919ms total)
T2CD8 001:091 JLINK_ReadReg(R0)  returns 0x00000001 (0000ms, 0919ms total)
T2CD8 001:091 JLINK_WriteReg(R0, 0x08000800)  returns 0x00 (0000ms, 0919ms total)
T2CD8 001:091 JLINK_WriteReg(R1, 0x00000800)  returns 0x00 (0000ms, 0919ms total)
T2CD8 001:091 JLINK_WriteReg(R2, 0x000000FF)  returns 0x00 (0000ms, 0919ms total)
T2CD8 001:091 JLINK_WriteReg(R3, 0x00000000)  returns 0x00 (0001ms, 0919ms total)
T2CD8 001:092 JLINK_WriteReg(R4, 0x00000000)  returns 0x00 (0001ms, 0920ms total)
T2CD8 001:093 JLINK_WriteReg(R5, 0x00000000)  returns 0x00 (0000ms, 0921ms total)
T2CD8 001:093 JLINK_WriteReg(R6, 0x00000000)  returns 0x00 (0000ms, 0921ms total)
T2CD8 001:093 JLINK_WriteReg(R7, 0x00000000)  returns 0x00 (0000ms, 0921ms total)
T2CD8 001:093 JLINK_WriteReg(R8, 0x00000000)  returns 0x00 (0000ms, 0921ms total)
T2CD8 001:093 JLINK_WriteReg(R9, 0x20000160)  returns 0x00 (0000ms, 0921ms total)
T2CD8 001:093 JLINK_WriteReg(R10, 0x00000000)  returns 0x00 (0000ms, 0921ms total)
T2CD8 001:093 JLINK_WriteReg(R11, 0x00000000)  returns 0x00 (0000ms, 0921ms total)
T2CD8 001:093 JLINK_WriteReg(R12, 0x00000000)  returns 0x00 (0000ms, 0921ms total)
T2CD8 001:093 JLINK_WriteReg(R13, 0x20000800)  returns 0x00 (0000ms, 0921ms total)
T2CD8 001:093 JLINK_WriteReg(R14, 0x20000001)  returns 0x00 (0000ms, 0921ms total)
T2CD8 001:093 JLINK_WriteReg(R15, 0x200000B6)  returns 0x00 (0000ms, 0921ms total)
T2CD8 001:093 JLINK_WriteReg(XPSR, 0x01000000)  returns 0x00 (0000ms, 0921ms total)
T2CD8 001:093 JLINK_WriteReg(MSP, 0x20000800)  returns 0x00 (0000ms, 0921ms total)
T2CD8 001:093 JLINK_WriteReg(PSP, 0x20000800)  returns 0x00 (0000ms, 0921ms total)
T2CD8 001:093 JLINK_WriteReg(CFBP, 0x00000000)  returns 0x00 (0000ms, 0921ms total)
T2CD8 001:093 JLINK_SetBPEx(Addr = 0x20000000, Type = 0xFFFFFFF2)  returns 0x00000005 (0000ms, 0921ms total)
T2CD8 001:093 JLINK_Go() -- CPU_WriteMem(4 bytes @ 0xE0002008) -- CPU_WriteMem(4 bytes @ 0xE000200C) -- CPU_WriteMem(4 bytes @ 0xE0002010) -- CPU_WriteMem(4 bytes @ 0xE0002014) -- CPU_WriteMem(4 bytes @ 0xE0002018) -- CPU_WriteMem(4 bytes @ 0xE000201C) (0005ms, 0921ms total)
T2CD8 001:098 JLINK_IsHalted()  returns FALSE (0001ms, 0926ms total)
T2CD8 001:150 JLINK_IsHalted() -- CPU_ReadMem(2 bytes @ 0x20000000)  returns TRUE (0006ms, 0926ms total)
T2CD8 001:156 JLINK_ReadReg(R15)  returns 0x20000000 (0000ms, 0926ms total)
T2CD8 001:156 JLINK_ClrBPEx(BPHandle = 0x00000005)  returns 0x00 (0000ms, 0926ms total)
T2CD8 001:156 JLINK_ReadReg(R0)  returns 0x00000000 (0000ms, 0926ms total)
T2CD8 001:157 JLINK_WriteReg(R0, 0x08001000)  returns 0x00 (0000ms, 0926ms total)
T2CD8 001:157 JLINK_WriteReg(R1, 0x00000800)  returns 0x00 (0000ms, 0926ms total)
T2CD8 001:157 JLINK_WriteReg(R2, 0x000000FF)  returns 0x00 (0000ms, 0926ms total)
T2CD8 001:157 JLINK_WriteReg(R3, 0x00000000)  returns 0x00 (0000ms, 0926ms total)
T2CD8 001:157 JLINK_WriteReg(R4, 0x00000000)  returns 0x00 (0000ms, 0926ms total)
T2CD8 001:157 JLINK_WriteReg(R5, 0x00000000)  returns 0x00 (0000ms, 0926ms total)
T2CD8 001:157 JLINK_WriteReg(R6, 0x00000000)  returns 0x00 (0000ms, 0926ms total)
T2CD8 001:157 JLINK_WriteReg(R7, 0x00000000)  returns 0x00 (0000ms, 0926ms total)
T2CD8 001:157 JLINK_WriteReg(R8, 0x00000000)  returns 0x00 (0000ms, 0926ms total)
T2CD8 001:157 JLINK_WriteReg(R9, 0x20000160)  returns 0x00 (0000ms, 0926ms total)
T2CD8 001:157 JLINK_WriteReg(R10, 0x00000000)  returns 0x00 (0000ms, 0926ms total)
T2CD8 001:157 JLINK_WriteReg(R11, 0x00000000)  returns 0x00 (0000ms, 0926ms total)
T2CD8 001:157 JLINK_WriteReg(R12, 0x00000000)  returns 0x00 (0000ms, 0926ms total)
T2CD8 001:157 JLINK_WriteReg(R13, 0x20000800)  returns 0x00 (0000ms, 0926ms total)
T2CD8 001:157 JLINK_WriteReg(R14, 0x20000001)  returns 0x00 (0000ms, 0926ms total)
T2CD8 001:157 JLINK_WriteReg(R15, 0x20000020)  returns 0x00 (0000ms, 0926ms total)
T2CD8 001:157 JLINK_WriteReg(XPSR, 0x01000000)  returns 0x00 (0000ms, 0926ms total)
T2CD8 001:157 JLINK_WriteReg(MSP, 0x20000800)  returns 0x00 (0000ms, 0926ms total)
T2CD8 001:157 JLINK_WriteReg(PSP, 0x20000800)  returns 0x00 (0000ms, 0926ms total)
T2CD8 001:157 JLINK_WriteReg(CFBP, 0x00000000)  returns 0x00 (0000ms, 0926ms total)
T2CD8 001:157 JLINK_SetBPEx(Addr = 0x20000000, Type = 0xFFFFFFF2)  returns 0x00000006 (0000ms, 0926ms total)
T2CD8 001:157 JLINK_Go() -- CPU_WriteMem(4 bytes @ 0xE0002008) -- CPU_WriteMem(4 bytes @ 0xE000200C) -- CPU_WriteMem(4 bytes @ 0xE0002010) -- CPU_WriteMem(4 bytes @ 0xE0002014) -- CPU_WriteMem(4 bytes @ 0xE0002018) -- CPU_WriteMem(4 bytes @ 0xE000201C) (0005ms, 0926ms total)
T2CD8 001:162 JLINK_IsHalted() -- CPU_ReadMem(2 bytes @ 0x20000000)  returns TRUE (0006ms, 0931ms total)
T2CD8 001:168 JLINK_ReadReg(R15)  returns 0x20000000 (0000ms, 0931ms total)
T2CD8 001:168 JLINK_ClrBPEx(BPHandle = 0x00000006)  returns 0x00 (0000ms, 0931ms total)
T2CD8 001:168 JLINK_ReadReg(R0)  returns 0x00000001 (0000ms, 0931ms total)
T2CD8 001:168 JLINK_WriteReg(R0, 0x08001000)  returns 0x00 (0000ms, 0931ms total)
T2CD8 001:168 JLINK_WriteReg(R1, 0x00000800)  returns 0x00 (0001ms, 0931ms total)
T2CD8 001:169 JLINK_WriteReg(R2, 0x000000FF)  returns 0x00 (0000ms, 0932ms total)
T2CD8 001:169 JLINK_WriteReg(R3, 0x00000000)  returns 0x00 (0000ms, 0932ms total)
T2CD8 001:169 JLINK_WriteReg(R4, 0x00000000)  returns 0x00 (0000ms, 0932ms total)
T2CD8 001:169 JLINK_WriteReg(R5, 0x00000000)  returns 0x00 (0000ms, 0932ms total)
T2CD8 001:169 JLINK_WriteReg(R6, 0x00000000)  returns 0x00 (0000ms, 0932ms total)
T2CD8 001:169 JLINK_WriteReg(R7, 0x00000000)  returns 0x00 (0000ms, 0932ms total)
T2CD8 001:169 JLINK_WriteReg(R8, 0x00000000)  returns 0x00 (0000ms, 0932ms total)
T2CD8 001:169 JLINK_WriteReg(R9, 0x20000160)  returns 0x00 (0000ms, 0932ms total)
T2CD8 001:169 JLINK_WriteReg(R10, 0x00000000)  returns 0x00 (0000ms, 0932ms total)
T2CD8 001:169 JLINK_WriteReg(R11, 0x00000000)  returns 0x00 (0000ms, 0932ms total)
T2CD8 001:169 JLINK_WriteReg(R12, 0x00000000)  returns 0x00 (0000ms, 0932ms total)
T2CD8 001:169 JLINK_WriteReg(R13, 0x20000800)  returns 0x00 (0000ms, 0932ms total)
T2CD8 001:169 JLINK_WriteReg(R14, 0x20000001)  returns 0x00 (0000ms, 0932ms total)
T2CD8 001:169 JLINK_WriteReg(R15, 0x200000B6)  returns 0x00 (0000ms, 0932ms total)
T2CD8 001:169 JLINK_WriteReg(XPSR, 0x01000000)  returns 0x00 (0000ms, 0932ms total)
T2CD8 001:169 JLINK_WriteReg(MSP, 0x20000800)  returns 0x00 (0000ms, 0932ms total)
T2CD8 001:169 JLINK_WriteReg(PSP, 0x20000800)  returns 0x00 (0000ms, 0932ms total)
T2CD8 001:169 JLINK_WriteReg(CFBP, 0x00000000)  returns 0x00 (0000ms, 0932ms total)
T2CD8 001:169 JLINK_SetBPEx(Addr = 0x20000000, Type = 0xFFFFFFF2)  returns 0x00000007 (0000ms, 0932ms total)
T2CD8 001:169 JLINK_Go() -- CPU_WriteMem(4 bytes @ 0xE0002008) -- CPU_WriteMem(4 bytes @ 0xE000200C) -- CPU_WriteMem(4 bytes @ 0xE0002010) -- CPU_WriteMem(4 bytes @ 0xE0002014) -- CPU_WriteMem(4 bytes @ 0xE0002018) -- CPU_WriteMem(4 bytes @ 0xE000201C) (0005ms, 0932ms total)
T2CD8 001:174 JLINK_IsHalted()  returns FALSE (0001ms, 0937ms total)
T2CD8 001:226 JLINK_IsHalted() -- CPU_ReadMem(2 bytes @ 0x20000000)  returns TRUE (0007ms, 0937ms total)
T2CD8 001:233 JLINK_ReadReg(R15)  returns 0x20000000 (0000ms, 0937ms total)
T2CD8 001:233 JLINK_ClrBPEx(BPHandle = 0x00000007)  returns 0x00 (0000ms, 0937ms total)
T2CD8 001:233 JLINK_ReadReg(R0)  returns 0x00000000 (0000ms, 0937ms total)
T2CD8 001:234 JLINK_WriteReg(R0, 0x08001800)  returns 0x00 (0001ms, 0937ms total)
T2CD8 001:235 JLINK_WriteReg(R1, 0x00000800)  returns 0x00 (0000ms, 0938ms total)
T2CD8 001:235 JLINK_WriteReg(R2, 0x000000FF)  returns 0x00 (0000ms, 0938ms total)
T2CD8 001:235 JLINK_WriteReg(R3, 0x00000000)  returns 0x00 (0000ms, 0938ms total)
T2CD8 001:235 JLINK_WriteReg(R4, 0x00000000)  returns 0x00 (0000ms, 0938ms total)
T2CD8 001:235 JLINK_WriteReg(R5, 0x00000000)  returns 0x00 (0000ms, 0938ms total)
T2CD8 001:235 JLINK_WriteReg(R6, 0x00000000)  returns 0x00 (0000ms, 0938ms total)
T2CD8 001:235 JLINK_WriteReg(R7, 0x00000000)  returns 0x00 (0000ms, 0938ms total)
T2CD8 001:235 JLINK_WriteReg(R8, 0x00000000)  returns 0x00 (0000ms, 0938ms total)
T2CD8 001:235 JLINK_WriteReg(R9, 0x20000160)  returns 0x00 (0000ms, 0938ms total)
T2CD8 001:235 JLINK_WriteReg(R10, 0x00000000)  returns 0x00 (0000ms, 0938ms total)
T2CD8 001:235 JLINK_WriteReg(R11, 0x00000000)  returns 0x00 (0000ms, 0938ms total)
T2CD8 001:235 JLINK_WriteReg(R12, 0x00000000)  returns 0x00 (0000ms, 0938ms total)
T2CD8 001:235 JLINK_WriteReg(R13, 0x20000800)  returns 0x00 (0000ms, 0938ms total)
T2CD8 001:235 JLINK_WriteReg(R14, 0x20000001)  returns 0x00 (0000ms, 0938ms total)
T2CD8 001:235 JLINK_WriteReg(R15, 0x20000020)  returns 0x00 (0000ms, 0938ms total)
T2CD8 001:236 JLINK_WriteReg(XPSR, 0x01000000)  returns 0x00 (0000ms, 0938ms total)
T2CD8 001:236 JLINK_WriteReg(MSP, 0x20000800)  returns 0x00 (0000ms, 0938ms total)
T2CD8 001:236 JLINK_WriteReg(PSP, 0x20000800)  returns 0x00 (0000ms, 0938ms total)
T2CD8 001:236 JLINK_WriteReg(CFBP, 0x00000000)  returns 0x00 (0000ms, 0938ms total)
T2CD8 001:236 JLINK_SetBPEx(Addr = 0x20000000, Type = 0xFFFFFFF2)  returns 0x00000008 (0000ms, 0938ms total)
T2CD8 001:236 JLINK_Go() -- CPU_WriteMem(4 bytes @ 0xE0002008) -- CPU_WriteMem(4 bytes @ 0xE000200C) -- CPU_WriteMem(4 bytes @ 0xE0002010) -- CPU_WriteMem(4 bytes @ 0xE0002014) -- CPU_WriteMem(4 bytes @ 0xE0002018) -- CPU_WriteMem(4 bytes @ 0xE000201C) (0006ms, 0938ms total)
T2CD8 001:242 JLINK_IsHalted() -- CPU_ReadMem(2 bytes @ 0x20000000)  returns TRUE (0007ms, 0944ms total)
T2CD8 001:249 JLINK_ReadReg(R15)  returns 0x20000000 (0000ms, 0944ms total)
T2CD8 001:249 JLINK_ClrBPEx(BPHandle = 0x00000008)  returns 0x00 (0000ms, 0944ms total)
T2CD8 001:249 JLINK_ReadReg(R0)  returns 0x00000001 (0000ms, 0944ms total)
T2CD8 001:249 JLINK_WriteReg(R0, 0x08001800)  returns 0x00 (0000ms, 0944ms total)
T2CD8 001:249 JLINK_WriteReg(R1, 0x00000800)  returns 0x00 (0000ms, 0944ms total)
T2CD8 001:249 JLINK_WriteReg(R2, 0x000000FF)  returns 0x00 (0000ms, 0944ms total)
T2CD8 001:249 JLINK_WriteReg(R3, 0x00000000)  returns 0x00 (0000ms, 0944ms total)
T2CD8 001:249 JLINK_WriteReg(R4, 0x00000000)  returns 0x00 (0000ms, 0944ms total)
T2CD8 001:249 JLINK_WriteReg(R5, 0x00000000)  returns 0x00 (0001ms, 0944ms total)
T2CD8 001:250 JLINK_WriteReg(R6, 0x00000000)  returns 0x00 (0000ms, 0945ms total)
T2CD8 001:250 JLINK_WriteReg(R7, 0x00000000)  returns 0x00 (0000ms, 0945ms total)
T2CD8 001:250 JLINK_WriteReg(R8, 0x00000000)  returns 0x00 (0000ms, 0945ms total)
T2CD8 001:250 JLINK_WriteReg(R9, 0x20000160)  returns 0x00 (0000ms, 0945ms total)
T2CD8 001:250 JLINK_WriteReg(R10, 0x00000000)  returns 0x00 (0000ms, 0945ms total)
T2CD8 001:250 JLINK_WriteReg(R11, 0x00000000)  returns 0x00 (0000ms, 0945ms total)
T2CD8 001:250 JLINK_WriteReg(R12, 0x00000000)  returns 0x00 (0000ms, 0945ms total)
T2CD8 001:250 JLINK_WriteReg(R13, 0x20000800)  returns 0x00 (0000ms, 0945ms total)
T2CD8 001:250 JLINK_WriteReg(R14, 0x20000001)  returns 0x00 (0000ms, 0945ms total)
T2CD8 001:251 JLINK_WriteReg(R15, 0x200000B6)  returns 0x00 (0000ms, 0946ms total)
T2CD8 001:251 JLINK_WriteReg(XPSR, 0x01000000)  returns 0x00 (0000ms, 0946ms total)
T2CD8 001:251 JLINK_WriteReg(MSP, 0x20000800)  returns 0x00 (0000ms, 0946ms total)
T2CD8 001:251 JLINK_WriteReg(PSP, 0x20000800)  returns 0x00 (0000ms, 0946ms total)
T2CD8 001:251 JLINK_WriteReg(CFBP, 0x00000000)  returns 0x00 (0000ms, 0946ms total)
T2CD8 001:251 JLINK_SetBPEx(Addr = 0x20000000, Type = 0xFFFFFFF2)  returns 0x00000009 (0000ms, 0946ms total)
T2CD8 001:251 JLINK_Go() -- CPU_WriteMem(4 bytes @ 0xE0002008) -- CPU_WriteMem(4 bytes @ 0xE000200C) -- CPU_WriteMem(4 bytes @ 0xE0002010) -- CPU_WriteMem(4 bytes @ 0xE0002014) -- CPU_WriteMem(4 bytes @ 0xE0002018) -- CPU_WriteMem(4 bytes @ 0xE000201C) (0006ms, 0946ms total)
T2CD8 001:257 JLINK_IsHalted()  returns FALSE (0000ms, 0952ms total)
T2CD8 001:308 JLINK_IsHalted() -- CPU_ReadMem(2 bytes @ 0x20000000)  returns TRUE (0006ms, 0952ms total)
T2CD8 001:314 JLINK_ReadReg(R15)  returns 0x20000000 (0000ms, 0952ms total)
T2CD8 001:314 JLINK_ClrBPEx(BPHandle = 0x00000009)  returns 0x00 (0000ms, 0952ms total)
T2CD8 001:314 JLINK_ReadReg(R0)  returns 0x00000000 (0000ms, 0952ms total)
T2CD8 001:315 JLINK_WriteReg(R0, 0x00000001)  returns 0x00 (0000ms, 0952ms total)
T2CD8 001:315 JLINK_WriteReg(R1, 0x00000800)  returns 0x00 (0000ms, 0952ms total)
T2CD8 001:315 JLINK_WriteReg(R2, 0x000000FF)  returns 0x00 (0000ms, 0952ms total)
T2CD8 001:315 JLINK_WriteReg(R3, 0x00000000)  returns 0x00 (0000ms, 0952ms total)
T2CD8 001:315 JLINK_WriteReg(R4, 0x00000000)  returns 0x00 (0000ms, 0952ms total)
T2CD8 001:315 JLINK_WriteReg(R5, 0x00000000)  returns 0x00 (0000ms, 0952ms total)
T2CD8 001:315 JLINK_WriteReg(R6, 0x00000000)  returns 0x00 (0000ms, 0952ms total)
T2CD8 001:315 JLINK_WriteReg(R7, 0x00000000)  returns 0x00 (0000ms, 0952ms total)
T2CD8 001:315 JLINK_WriteReg(R8, 0x00000000)  returns 0x00 (0000ms, 0952ms total)
T2CD8 001:315 JLINK_WriteReg(R9, 0x20000160)  returns 0x00 (0000ms, 0952ms total)
T2CD8 001:315 JLINK_WriteReg(R10, 0x00000000)  returns 0x00 (0000ms, 0952ms total)
T2CD8 001:315 JLINK_WriteReg(R11, 0x00000000)  returns 0x00 (0000ms, 0952ms total)
T2CD8 001:315 JLINK_WriteReg(R12, 0x00000000)  returns 0x00 (0000ms, 0952ms total)
T2CD8 001:315 JLINK_WriteReg(R13, 0x20000800)  returns 0x00 (0000ms, 0952ms total)
T2CD8 001:315 JLINK_WriteReg(R14, 0x20000001)  returns 0x00 (0000ms, 0952ms total)
T2CD8 001:315 JLINK_WriteReg(R15, 0x2000006A)  returns 0x00 (0001ms, 0952ms total)
T2CD8 001:316 JLINK_WriteReg(XPSR, 0x01000000)  returns 0x00 (0000ms, 0953ms total)
T2CD8 001:316 JLINK_WriteReg(MSP, 0x20000800)  returns 0x00 (0000ms, 0953ms total)
T2CD8 001:316 JLINK_WriteReg(PSP, 0x20000800)  returns 0x00 (0000ms, 0953ms total)
T2CD8 001:316 JLINK_WriteReg(CFBP, 0x00000000)  returns 0x00 (0000ms, 0953ms total)
T2CD8 001:316 JLINK_SetBPEx(Addr = 0x20000000, Type = 0xFFFFFFF2)  returns 0x0000000A (0000ms, 0953ms total)
T2CD8 001:316 JLINK_Go() -- CPU_WriteMem(4 bytes @ 0xE0002008) -- CPU_WriteMem(4 bytes @ 0xE000200C) -- CPU_WriteMem(4 bytes @ 0xE0002010) -- CPU_WriteMem(4 bytes @ 0xE0002014) -- CPU_WriteMem(4 bytes @ 0xE0002018) -- CPU_WriteMem(4 bytes @ 0xE000201C) (0006ms, 0953ms total)
T2CD8 001:322 JLINK_IsHalted() -- CPU_ReadMem(2 bytes @ 0x20000000)  returns TRUE (0007ms, 0959ms total)
T2CD8 001:329 JLINK_ReadReg(R15)  returns 0x20000000 (0000ms, 0959ms total)
T2CD8 001:329 JLINK_ClrBPEx(BPHandle = 0x0000000A)  returns 0x00 (0000ms, 0959ms total)
T2CD8 001:329 JLINK_ReadReg(R0)  returns 0x00000000 (0000ms, 0959ms total)
T2CD8 001:389 JLINK_WriteMem(0x20000000, 0x0164 Bytes, ...) -- Data:  00 BE 0A E0 0D 78 2D 06 68 40 08 24 40 00 00 D3 ... -- CPU_WriteMem(356 bytes @ 0x20000000)  returns 0x164 (0005ms, 0959ms total)
T2CD8 001:394 JLINK_WriteReg(R0, 0x08000000)  returns 0x00 (0000ms, 0964ms total)
T2CD8 001:394 JLINK_WriteReg(R1, 0x00B71B00)  returns 0x00 (0000ms, 0964ms total)
T2CD8 001:394 JLINK_WriteReg(R2, 0x00000002)  returns 0x00 (0000ms, 0964ms total)
T2CD8 001:394 JLINK_WriteReg(R3, 0x00000000)  returns 0x00 (0000ms, 0964ms total)
T2CD8 001:394 JLINK_WriteReg(R4, 0x00000000)  returns 0x00 (0000ms, 0964ms total)
T2CD8 001:394 JLINK_WriteReg(R5, 0x00000000)  returns 0x00 (0000ms, 0964ms total)
T2CD8 001:394 JLINK_WriteReg(R6, 0x00000000)  returns 0x00 (0000ms, 0964ms total)
T2CD8 001:394 JLINK_WriteReg(R7, 0x00000000)  returns 0x00 (0000ms, 0964ms total)
T2CD8 001:394 JLINK_WriteReg(R8, 0x00000000)  returns 0x00 (0000ms, 0964ms total)
T2CD8 001:394 JLINK_WriteReg(R9, 0x20000160)  returns 0x00 (0000ms, 0964ms total)
T2CD8 001:394 JLINK_WriteReg(R10, 0x00000000)  returns 0x00 (0000ms, 0964ms total)
T2CD8 001:395 JLINK_WriteReg(R11, 0x00000000)  returns 0x00 (0000ms, 0965ms total)
T2CD8 001:395 JLINK_WriteReg(R12, 0x00000000)  returns 0x00 (0000ms, 0965ms total)
T2CD8 001:395 JLINK_WriteReg(R13, 0x20000800)  returns 0x00 (0000ms, 0965ms total)
T2CD8 001:395 JLINK_WriteReg(R14, 0x20000001)  returns 0x00 (0000ms, 0965ms total)
T2CD8 001:395 JLINK_WriteReg(R15, 0x20000038)  returns 0x00 (0000ms, 0965ms total)
T2CD8 001:395 JLINK_WriteReg(XPSR, 0x01000000)  returns 0x00 (0000ms, 0965ms total)
T2CD8 001:395 JLINK_WriteReg(MSP, 0x20000800)  returns 0x00 (0000ms, 0965ms total)
T2CD8 001:395 JLINK_WriteReg(PSP, 0x20000800)  returns 0x00 (0000ms, 0965ms total)
T2CD8 001:395 JLINK_WriteReg(CFBP, 0x00000000)  returns 0x00 (0000ms, 0965ms total)
T2CD8 001:395 JLINK_SetBPEx(Addr = 0x20000000, Type = 0xFFFFFFF2) -- CPU_ReadMem(2 bytes @ 0x20000000)  returns 0x0000000B (0001ms, 0965ms total)
T2CD8 001:396 JLINK_Go() -- CPU_WriteMem(2 bytes @ 0x20000000) -- CPU_WriteMem(4 bytes @ 0xE0002008) -- CPU_WriteMem(4 bytes @ 0xE000200C) -- CPU_WriteMem(4 bytes @ 0xE0002010) -- CPU_WriteMem(4 bytes @ 0xE0002014) -- CPU_WriteMem(4 bytes @ 0xE0002018) -- CPU_WriteMem(4 bytes @ 0xE000201C) (0005ms, 0966ms total)
T2CD8 001:401 JLINK_IsHalted() -- CPU_ReadMem(2 bytes @ 0x20000000)  returns TRUE (0007ms, 0971ms total)
T2CD8 001:408 JLINK_ReadReg(R15)  returns 0x20000000 (0000ms, 0971ms total)
T2CD8 001:408 JLINK_ClrBPEx(BPHandle = 0x0000000B)  returns 0x00 (0000ms, 0971ms total)
T2CD8 001:408 JLINK_ReadReg(R0)  returns 0x00000000 (0000ms, 0971ms total)
T2CD8 001:409 JLINK_WriteMem(0x20000164, 0x0400 Bytes, ...) -- Data:  38 08 00 20 65 01 00 08 6D 01 00 08 6F 01 00 08 ... -- CPU_WriteMem(1024 bytes @ 0x20000164)  returns 0x400 (0013ms, 0971ms total)
T2CD8 001:422 JLINK_WriteReg(R0, 0x08000000)  returns 0x00 (0000ms, 0984ms total)
T2CD8 001:422 JLINK_WriteReg(R1, 0x00000400)  returns 0x00 (0000ms, 0984ms total)
T2CD8 001:422 JLINK_WriteReg(R2, 0x20000164)  returns 0x00 (0000ms, 0984ms total)
T2CD8 001:422 JLINK_WriteReg(R3, 0x00000000)  returns 0x00 (0000ms, 0984ms total)
T2CD8 001:422 JLINK_WriteReg(R4, 0x00000000)  returns 0x00 (0000ms, 0984ms total)
T2CD8 001:422 JLINK_WriteReg(R5, 0x00000000)  returns 0x00 (0000ms, 0984ms total)
T2CD8 001:422 JLINK_WriteReg(R6, 0x00000000)  returns 0x00 (0000ms, 0984ms total)
T2CD8 001:422 JLINK_WriteReg(R7, 0x00000000)  returns 0x00 (0000ms, 0984ms total)
T2CD8 001:422 JLINK_WriteReg(R8, 0x00000000)  returns 0x00 (0000ms, 0984ms total)
T2CD8 001:422 JLINK_WriteReg(R9, 0x20000160)  returns 0x00 (0000ms, 0984ms total)
T2CD8 001:422 JLINK_WriteReg(R10, 0x00000000)  returns 0x00 (0000ms, 0984ms total)
T2CD8 001:422 JLINK_WriteReg(R11, 0x00000000)  returns 0x00 (0000ms, 0984ms total)
T2CD8 001:422 JLINK_WriteReg(R12, 0x00000000)  returns 0x00 (0000ms, 0984ms total)
T2CD8 001:422 JLINK_WriteReg(R13, 0x20000800)  returns 0x00 (0000ms, 0984ms total)
T2CD8 001:422 JLINK_WriteReg(R14, 0x20000001)  returns 0x00 (0000ms, 0984ms total)
T2CD8 001:422 JLINK_WriteReg(R15, 0x200000F4)  returns 0x00 (0001ms, 0984ms total)
T2CD8 001:423 JLINK_WriteReg(XPSR, 0x01000000)  returns 0x00 (0000ms, 0985ms total)
T2CD8 001:423 JLINK_WriteReg(MSP, 0x20000800)  returns 0x00 (0000ms, 0985ms total)
T2CD8 001:423 JLINK_WriteReg(PSP, 0x20000800)  returns 0x00 (0000ms, 0985ms total)
T2CD8 001:423 JLINK_WriteReg(CFBP, 0x00000000)  returns 0x00 (0000ms, 0985ms total)
T2CD8 001:423 JLINK_SetBPEx(Addr = 0x20000000, Type = 0xFFFFFFF2)  returns 0x0000000C (0000ms, 0985ms total)
T2CD8 001:423 JLINK_Go() -- CPU_WriteMem(4 bytes @ 0xE0002008) -- CPU_WriteMem(4 bytes @ 0xE000200C) -- CPU_WriteMem(4 bytes @ 0xE0002010) -- CPU_WriteMem(4 bytes @ 0xE0002014) -- CPU_WriteMem(4 bytes @ 0xE0002018) -- CPU_WriteMem(4 bytes @ 0xE000201C) (0006ms, 0985ms total)
T2CD8 001:429 JLINK_IsHalted()  returns FALSE (0000ms, 0991ms total)
T2CD8 001:480 JLINK_IsHalted() -- CPU_ReadMem(2 bytes @ 0x20000000)  returns TRUE (0006ms, 0991ms total)
T2CD8 001:486 JLINK_ReadReg(R15)  returns 0x20000000 (0000ms, 0991ms total)
T2CD8 001:486 JLINK_ClrBPEx(BPHandle = 0x0000000C)  returns 0x00 (0000ms, 0991ms total)
T2CD8 001:486 JLINK_ReadReg(R0)  returns 0x00000000 (0000ms, 0991ms total)
T2CD8 001:487 JLINK_WriteMem(0x20000164, 0x0400 Bytes, ...) -- Data:  02 20 00 F0 A9 F8 4F F4 80 50 FF F7 E9 FF 10 20 ... -- CPU_WriteMem(1024 bytes @ 0x20000164)  returns 0x400 (0013ms, 0991ms total)
T2CD8 001:500 JLINK_WriteReg(R0, 0x08000400)  returns 0x00 (0000ms, 1004ms total)
T2CD8 001:500 JLINK_WriteReg(R1, 0x00000400)  returns 0x00 (0000ms, 1004ms total)
T2CD8 001:500 JLINK_WriteReg(R2, 0x20000164)  returns 0x00 (0000ms, 1004ms total)
T2CD8 001:500 JLINK_WriteReg(R3, 0x00000000)  returns 0x00 (0000ms, 1004ms total)
T2CD8 001:500 JLINK_WriteReg(R4, 0x00000000)  returns 0x00 (0001ms, 1004ms total)
T2CD8 001:501 JLINK_WriteReg(R5, 0x00000000)  returns 0x00 (0000ms, 1005ms total)
T2CD8 001:501 JLINK_WriteReg(R6, 0x00000000)  returns 0x00 (0000ms, 1005ms total)
T2CD8 001:501 JLINK_WriteReg(R7, 0x00000000)  returns 0x00 (0000ms, 1005ms total)
T2CD8 001:501 JLINK_WriteReg(R8, 0x00000000)  returns 0x00 (0000ms, 1005ms total)
T2CD8 001:501 JLINK_WriteReg(R9, 0x20000160)  returns 0x00 (0000ms, 1005ms total)
T2CD8 001:501 JLINK_WriteReg(R10, 0x00000000)  returns 0x00 (0000ms, 1005ms total)
T2CD8 001:501 JLINK_WriteReg(R11, 0x00000000)  returns 0x00 (0000ms, 1005ms total)
T2CD8 001:501 JLINK_WriteReg(R12, 0x00000000)  returns 0x00 (0000ms, 1005ms total)
T2CD8 001:501 JLINK_WriteReg(R13, 0x20000800)  returns 0x00 (0000ms, 1005ms total)
T2CD8 001:501 JLINK_WriteReg(R14, 0x20000001)  returns 0x00 (0000ms, 1005ms total)
T2CD8 001:501 JLINK_WriteReg(R15, 0x200000F4)  returns 0x00 (0000ms, 1005ms total)
T2CD8 001:501 JLINK_WriteReg(XPSR, 0x01000000)  returns 0x00 (0000ms, 1005ms total)
T2CD8 001:501 JLINK_WriteReg(MSP, 0x20000800)  returns 0x00 (0000ms, 1005ms total)
T2CD8 001:501 JLINK_WriteReg(PSP, 0x20000800)  returns 0x00 (0000ms, 1005ms total)
T2CD8 001:501 JLINK_WriteReg(CFBP, 0x00000000)  returns 0x00 (0000ms, 1005ms total)
T2CD8 001:501 JLINK_SetBPEx(Addr = 0x20000000, Type = 0xFFFFFFF2)  returns 0x0000000D (0000ms, 1005ms total)
T2CD8 001:501 JLINK_Go() -- CPU_WriteMem(4 bytes @ 0xE0002008) -- CPU_WriteMem(4 bytes @ 0xE000200C) -- CPU_WriteMem(4 bytes @ 0xE0002010) -- CPU_WriteMem(4 bytes @ 0xE0002014) -- CPU_WriteMem(4 bytes @ 0xE0002018) -- CPU_WriteMem(4 bytes @ 0xE000201C) (0006ms, 1005ms total)
T2CD8 001:507 JLINK_IsHalted()  returns FALSE (0001ms, 1011ms total)
T2CD8 001:559 JLINK_IsHalted() -- CPU_ReadMem(2 bytes @ 0x20000000)  returns TRUE (0006ms, 1011ms total)
T2CD8 001:565 JLINK_ReadReg(R15)  returns 0x20000000 (0000ms, 1011ms total)
T2CD8 001:566 JLINK_ClrBPEx(BPHandle = 0x0000000D)  returns 0x00 (0000ms, 1011ms total)
T2CD8 001:566 JLINK_ReadReg(R0)  returns 0x00000000 (0000ms, 1011ms total)
T2CD8 001:566 JLINK_WriteMem(0x20000164, 0x0400 Bytes, ...) -- Data:  00 20 8D F8 1E 00 07 20 8D F8 1F 00 00 20 8D F8 ... -- CPU_WriteMem(1024 bytes @ 0x20000164)  returns 0x400 (0014ms, 1011ms total)
T2CD8 001:580 JLINK_WriteReg(R0, 0x08000800)  returns 0x00 (0000ms, 1025ms total)
T2CD8 001:580 JLINK_WriteReg(R1, 0x00000400)  returns 0x00 (0000ms, 1025ms total)
T2CD8 001:580 JLINK_WriteReg(R2, 0x20000164)  returns 0x00 (0000ms, 1025ms total)
T2CD8 001:580 JLINK_WriteReg(R3, 0x00000000)  returns 0x00 (0000ms, 1025ms total)
T2CD8 001:580 JLINK_WriteReg(R4, 0x00000000)  returns 0x00 (0000ms, 1025ms total)
T2CD8 001:580 JLINK_WriteReg(R5, 0x00000000)  returns 0x00 (0000ms, 1025ms total)
T2CD8 001:580 JLINK_WriteReg(R6, 0x00000000)  returns 0x00 (0000ms, 1025ms total)
T2CD8 001:580 JLINK_WriteReg(R7, 0x00000000)  returns 0x00 (0000ms, 1025ms total)
T2CD8 001:580 JLINK_WriteReg(R8, 0x00000000)  returns 0x00 (0000ms, 1025ms total)
T2CD8 001:580 JLINK_WriteReg(R9, 0x20000160)  returns 0x00 (0000ms, 1025ms total)
T2CD8 001:580 JLINK_WriteReg(R10, 0x00000000)  returns 0x00 (0000ms, 1025ms total)
T2CD8 001:580 JLINK_WriteReg(R11, 0x00000000)  returns 0x00 (0000ms, 1025ms total)
T2CD8 001:580 JLINK_WriteReg(R12, 0x00000000)  returns 0x00 (0000ms, 1025ms total)
T2CD8 001:580 JLINK_WriteReg(R13, 0x20000800)  returns 0x00 (0000ms, 1025ms total)
T2CD8 001:580 JLINK_WriteReg(R14, 0x20000001)  returns 0x00 (0000ms, 1025ms total)
T2CD8 001:580 JLINK_WriteReg(R15, 0x200000F4)  returns 0x00 (0000ms, 1025ms total)
T2CD8 001:580 JLINK_WriteReg(XPSR, 0x01000000)  returns 0x00 (0000ms, 1025ms total)
T2CD8 001:580 JLINK_WriteReg(MSP, 0x20000800)  returns 0x00 (0000ms, 1025ms total)
T2CD8 001:580 JLINK_WriteReg(PSP, 0x20000800)  returns 0x00 (0000ms, 1025ms total)
T2CD8 001:580 JLINK_WriteReg(CFBP, 0x00000000)  returns 0x00 (0000ms, 1025ms total)
T2CD8 001:580 JLINK_SetBPEx(Addr = 0x20000000, Type = 0xFFFFFFF2)  returns 0x0000000E (0000ms, 1025ms total)
T2CD8 001:580 JLINK_Go() -- CPU_WriteMem(4 bytes @ 0xE0002008) -- CPU_WriteMem(4 bytes @ 0xE000200C) -- CPU_WriteMem(4 bytes @ 0xE0002010) -- CPU_WriteMem(4 bytes @ 0xE0002014) -- CPU_WriteMem(4 bytes @ 0xE0002018) -- CPU_WriteMem(4 bytes @ 0xE000201C) (0007ms, 1025ms total)
T2CD8 001:587 JLINK_IsHalted()  returns FALSE (0000ms, 1032ms total)
T2CD8 001:638 JLINK_IsHalted() -- CPU_ReadMem(2 bytes @ 0x20000000)  returns TRUE (0006ms, 1032ms total)
T2CD8 001:644 JLINK_ReadReg(R15)  returns 0x20000000 (0000ms, 1032ms total)
T2CD8 001:644 JLINK_ClrBPEx(BPHandle = 0x0000000E)  returns 0x00 (0000ms, 1032ms total)
T2CD8 001:645 JLINK_ReadReg(R0)  returns 0x00000000 (0000ms, 1033ms total)
T2CD8 001:647 JLINK_WriteMem(0x20000164, 0x0400 Bytes, ...) -- Data:  BF 73 1A 40 02 80 70 47 02 46 00 20 13 89 0B 40 ... -- CPU_WriteMem(1024 bytes @ 0x20000164)  returns 0x400 (0013ms, 1033ms total)
T2CD8 001:660 JLINK_WriteReg(R0, 0x08000C00)  returns 0x00 (0000ms, 1046ms total)
T2CD8 001:660 JLINK_WriteReg(R1, 0x00000400)  returns 0x00 (0000ms, 1046ms total)
T2CD8 001:660 JLINK_WriteReg(R2, 0x20000164)  returns 0x00 (0001ms, 1046ms total)
T2CD8 001:661 JLINK_WriteReg(R3, 0x00000000)  returns 0x00 (0000ms, 1047ms total)
T2CD8 001:661 JLINK_WriteReg(R4, 0x00000000)  returns 0x00 (0000ms, 1047ms total)
T2CD8 001:661 JLINK_WriteReg(R5, 0x00000000)  returns 0x00 (0000ms, 1047ms total)
T2CD8 001:661 JLINK_WriteReg(R6, 0x00000000)  returns 0x00 (0000ms, 1047ms total)
T2CD8 001:661 JLINK_WriteReg(R7, 0x00000000)  returns 0x00 (0000ms, 1047ms total)
T2CD8 001:661 JLINK_WriteReg(R8, 0x00000000)  returns 0x00 (0000ms, 1047ms total)
T2CD8 001:661 JLINK_WriteReg(R9, 0x20000160)  returns 0x00 (0000ms, 1047ms total)
T2CD8 001:661 JLINK_WriteReg(R10, 0x00000000)  returns 0x00 (0000ms, 1047ms total)
T2CD8 001:661 JLINK_WriteReg(R11, 0x00000000)  returns 0x00 (0000ms, 1047ms total)
T2CD8 001:661 JLINK_WriteReg(R12, 0x00000000)  returns 0x00 (0000ms, 1047ms total)
T2CD8 001:661 JLINK_WriteReg(R13, 0x20000800)  returns 0x00 (0001ms, 1047ms total)
T2CD8 001:662 JLINK_WriteReg(R14, 0x20000001)  returns 0x00 (0000ms, 1048ms total)
T2CD8 001:662 JLINK_WriteReg(R15, 0x200000F4)  returns 0x00 (0000ms, 1048ms total)
T2CD8 001:662 JLINK_WriteReg(XPSR, 0x01000000)  returns 0x00 (0000ms, 1048ms total)
T2CD8 001:662 JLINK_WriteReg(MSP, 0x20000800)  returns 0x00 (0000ms, 1048ms total)
T2CD8 001:662 JLINK_WriteReg(PSP, 0x20000800)  returns 0x00 (0000ms, 1048ms total)
T2CD8 001:662 JLINK_WriteReg(CFBP, 0x00000000)  returns 0x00 (0000ms, 1048ms total)
T2CD8 001:662 JLINK_SetBPEx(Addr = 0x20000000, Type = 0xFFFFFFF2)  returns 0x0000000F (0000ms, 1048ms total)
T2CD8 001:662 JLINK_Go() -- CPU_WriteMem(4 bytes @ 0xE0002008) -- CPU_WriteMem(4 bytes @ 0xE000200C) -- CPU_WriteMem(4 bytes @ 0xE0002010) -- CPU_WriteMem(4 bytes @ 0xE0002014) -- CPU_WriteMem(4 bytes @ 0xE0002018) -- CPU_WriteMem(4 bytes @ 0xE000201C) (0008ms, 1048ms total)
T2CD8 001:670 JLINK_IsHalted()  returns FALSE (0001ms, 1056ms total)
T2CD8 001:722 JLINK_IsHalted() -- CPU_ReadMem(2 bytes @ 0x20000000)  returns TRUE (0007ms, 1056ms total)
T2CD8 001:729 JLINK_ReadReg(R15)  returns 0x20000000 (0000ms, 1056ms total)
T2CD8 001:729 JLINK_ClrBPEx(BPHandle = 0x0000000F)  returns 0x00 (0000ms, 1056ms total)
T2CD8 001:729 JLINK_ReadReg(R0)  returns 0x00000000 (0000ms, 1056ms total)
T2CD8 001:732 JLINK_WriteMem(0x20000164, 0x0400 Bytes, ...) -- Data:  00 D2 02 24 A0 1E 45 EA 00 25 60 1E 07 02 B0 78 ... -- CPU_WriteMem(1024 bytes @ 0x20000164)  returns 0x400 (0013ms, 1056ms total)
T2CD8 001:745 JLINK_WriteReg(R0, 0x08001000)  returns 0x00 (0000ms, 1069ms total)
T2CD8 001:745 JLINK_WriteReg(R1, 0x00000400)  returns 0x00 (0000ms, 1069ms total)
T2CD8 001:745 JLINK_WriteReg(R2, 0x20000164)  returns 0x00 (0000ms, 1069ms total)
T2CD8 001:745 JLINK_WriteReg(R3, 0x00000000)  returns 0x00 (0000ms, 1069ms total)
T2CD8 001:745 JLINK_WriteReg(R4, 0x00000000)  returns 0x00 (0000ms, 1069ms total)
T2CD8 001:745 JLINK_WriteReg(R5, 0x00000000)  returns 0x00 (0001ms, 1069ms total)
T2CD8 001:746 JLINK_WriteReg(R6, 0x00000000)  returns 0x00 (0000ms, 1070ms total)
T2CD8 001:746 JLINK_WriteReg(R7, 0x00000000)  returns 0x00 (0000ms, 1070ms total)
T2CD8 001:746 JLINK_WriteReg(R8, 0x00000000)  returns 0x00 (0000ms, 1070ms total)
T2CD8 001:746 JLINK_WriteReg(R9, 0x20000160)  returns 0x00 (0000ms, 1070ms total)
T2CD8 001:746 JLINK_WriteReg(R10, 0x00000000)  returns 0x00 (0000ms, 1070ms total)
T2CD8 001:746 JLINK_WriteReg(R11, 0x00000000)  returns 0x00 (0000ms, 1070ms total)
T2CD8 001:746 JLINK_WriteReg(R12, 0x00000000)  returns 0x00 (0000ms, 1070ms total)
T2CD8 001:746 JLINK_WriteReg(R13, 0x20000800)  returns 0x00 (0000ms, 1070ms total)
T2CD8 001:746 JLINK_WriteReg(R14, 0x20000001)  returns 0x00 (0000ms, 1070ms total)
T2CD8 001:746 JLINK_WriteReg(R15, 0x200000F4)  returns 0x00 (0000ms, 1070ms total)
T2CD8 001:746 JLINK_WriteReg(XPSR, 0x01000000)  returns 0x00 (0000ms, 1070ms total)
T2CD8 001:746 JLINK_WriteReg(MSP, 0x20000800)  returns 0x00 (0001ms, 1070ms total)
T2CD8 001:747 JLINK_WriteReg(PSP, 0x20000800)  returns 0x00 (0000ms, 1071ms total)
T2CD8 001:747 JLINK_WriteReg(CFBP, 0x00000000)  returns 0x00 (0000ms, 1071ms total)
T2CD8 001:747 JLINK_SetBPEx(Addr = 0x20000000, Type = 0xFFFFFFF2)  returns 0x00000010 (0000ms, 1071ms total)
T2CD8 001:747 JLINK_Go() -- CPU_WriteMem(4 bytes @ 0xE0002008) -- CPU_WriteMem(4 bytes @ 0xE000200C) -- CPU_WriteMem(4 bytes @ 0xE0002010) -- CPU_WriteMem(4 bytes @ 0xE0002014) -- CPU_WriteMem(4 bytes @ 0xE0002018) -- CPU_WriteMem(4 bytes @ 0xE000201C) (0007ms, 1071ms total)
T2CD8 001:754 JLINK_IsHalted()  returns FALSE (0001ms, 1078ms total)
T2CD8 001:806 JLINK_IsHalted() -- CPU_ReadMem(2 bytes @ 0x20000000)  returns TRUE (0007ms, 1078ms total)
T2CD8 001:813 JLINK_ReadReg(R15)  returns 0x20000000 (0000ms, 1078ms total)
T2CD8 001:813 JLINK_ClrBPEx(BPHandle = 0x00000010)  returns 0x00 (0000ms, 1078ms total)
T2CD8 001:813 JLINK_ReadReg(R0)  returns 0x00000000 (0000ms, 1078ms total)
T2CD8 001:815 JLINK_WriteMem(0x20000164, 0x0400 Bytes, ...) -- Data:  00 20 BD E8 F0 81 A0 46 06 F5 00 40 87 B2 07 EB ... -- CPU_WriteMem(1024 bytes @ 0x20000164)  returns 0x400 (0013ms, 1078ms total)
T2CD8 001:828 JLINK_WriteReg(R0, 0x08001400)  returns 0x00 (0000ms, 1091ms total)
T2CD8 001:828 JLINK_WriteReg(R1, 0x00000400)  returns 0x00 (0000ms, 1091ms total)
T2CD8 001:828 JLINK_WriteReg(R2, 0x20000164)  returns 0x00 (0000ms, 1091ms total)
T2CD8 001:828 JLINK_WriteReg(R3, 0x00000000)  returns 0x00 (0000ms, 1091ms total)
T2CD8 001:829 JLINK_WriteReg(R4, 0x00000000)  returns 0x00 (0000ms, 1092ms total)
T2CD8 001:829 JLINK_WriteReg(R5, 0x00000000)  returns 0x00 (0000ms, 1092ms total)
T2CD8 001:829 JLINK_WriteReg(R6, 0x00000000)  returns 0x00 (0000ms, 1092ms total)
T2CD8 001:829 JLINK_WriteReg(R7, 0x00000000)  returns 0x00 (0000ms, 1092ms total)
T2CD8 001:829 JLINK_WriteReg(R8, 0x00000000)  returns 0x00 (0000ms, 1092ms total)
T2CD8 001:829 JLINK_WriteReg(R9, 0x20000160)  returns 0x00 (0000ms, 1092ms total)
T2CD8 001:829 JLINK_WriteReg(R10, 0x00000000)  returns 0x00 (0000ms, 1092ms total)
T2CD8 001:829 JLINK_WriteReg(R11, 0x00000000)  returns 0x00 (0000ms, 1092ms total)
T2CD8 001:829 JLINK_WriteReg(R12, 0x00000000)  returns 0x00 (0000ms, 1092ms total)
T2CD8 001:829 JLINK_WriteReg(R13, 0x20000800)  returns 0x00 (0000ms, 1092ms total)
T2CD8 001:829 JLINK_WriteReg(R14, 0x20000001)  returns 0x00 (0000ms, 1092ms total)
T2CD8 001:829 JLINK_WriteReg(R15, 0x200000F4)  returns 0x00 (0001ms, 1092ms total)
T2CD8 001:830 JLINK_WriteReg(XPSR, 0x01000000)  returns 0x00 (0000ms, 1093ms total)
T2CD8 001:830 JLINK_WriteReg(MSP, 0x20000800)  returns 0x00 (0000ms, 1093ms total)
T2CD8 001:830 JLINK_WriteReg(PSP, 0x20000800)  returns 0x00 (0000ms, 1093ms total)
T2CD8 001:830 JLINK_WriteReg(CFBP, 0x00000000)  returns 0x00 (0000ms, 1093ms total)
T2CD8 001:830 JLINK_SetBPEx(Addr = 0x20000000, Type = 0xFFFFFFF2)  returns 0x00000011 (0000ms, 1093ms total)
T2CD8 001:830 JLINK_Go() -- CPU_WriteMem(4 bytes @ 0xE0002008) -- CPU_WriteMem(4 bytes @ 0xE000200C) -- CPU_WriteMem(4 bytes @ 0xE0002010) -- CPU_WriteMem(4 bytes @ 0xE0002014) -- CPU_WriteMem(4 bytes @ 0xE0002018) -- CPU_WriteMem(4 bytes @ 0xE000201C) (0008ms, 1093ms total)
T2CD8 001:838 JLINK_IsHalted()  returns FALSE (0001ms, 1101ms total)
T2CD8 001:890 JLINK_IsHalted() -- CPU_ReadMem(2 bytes @ 0x20000000)  returns TRUE (0007ms, 1101ms total)
T2CD8 001:897 JLINK_ReadReg(R15)  returns 0x20000000 (0000ms, 1101ms total)
T2CD8 001:897 JLINK_ClrBPEx(BPHandle = 0x00000011)  returns 0x00 (0000ms, 1101ms total)
T2CD8 001:897 JLINK_ReadReg(R0)  returns 0x00000000 (0000ms, 1101ms total)
T2CD8 001:899 JLINK_WriteMem(0x20000164, 0x0400 Bytes, ...) -- Data:  41 F2 F0 00 FE F7 3A FD 34 48 45 61 41 F2 F0 00 ... -- CPU_WriteMem(1024 bytes @ 0x20000164)  returns 0x400 (0013ms, 1101ms total)
T2CD8 001:912 JLINK_WriteReg(R0, 0x08001800)  returns 0x00 (0000ms, 1114ms total)
T2CD8 001:912 JLINK_WriteReg(R1, 0x00000400)  returns 0x00 (0000ms, 1114ms total)
T2CD8 001:912 JLINK_WriteReg(R2, 0x20000164)  returns 0x00 (0000ms, 1114ms total)
T2CD8 001:912 JLINK_WriteReg(R3, 0x00000000)  returns 0x00 (0001ms, 1114ms total)
T2CD8 001:913 JLINK_WriteReg(R4, 0x00000000)  returns 0x00 (0000ms, 1115ms total)
T2CD8 001:913 JLINK_WriteReg(R5, 0x00000000)  returns 0x00 (0000ms, 1115ms total)
T2CD8 001:913 JLINK_WriteReg(R6, 0x00000000)  returns 0x00 (0000ms, 1115ms total)
T2CD8 001:913 JLINK_WriteReg(R7, 0x00000000)  returns 0x00 (0000ms, 1115ms total)
T2CD8 001:913 JLINK_WriteReg(R8, 0x00000000)  returns 0x00 (0000ms, 1115ms total)
